# AXI信号描述
信号有以下几类：
1. 全局信号
2. 写地址通道信号
3. 写数据通道信号
4. 写回应通道信号
5. 读地址通道信号
6. 读数据通道信号

注意，每个信号的长度不定，可以自由定义，只要符合自己的需求即可。

## 全局信号
ACLK：来自时钟源，同步信号是时钟信号的上升沿。
ARESETn：来自复位信号，低电平有效(active-low)

## 写地址通道信号
AWID：来自主机，标记一个写事务的ID
AWADDR：来自主机，写事务的地址
AWLEN：来自主机，写事务(Transaction)的数据长度(有几个Transfer）
AWSIZE：来自主机，每一次数据传输(Transfer)的字节长度（一个包有几个字节）
AWBURST：来自主机，Burst类型（传输类型），表明在每一次传输(Transfer)的时候地址应该如何变化。
AWLOCK：来自主机，原子锁
AWCACHE：来自主机，Cache相关操作
AWPROT：来自主机，保护属性（privilege，security level，access type）
AWVALID：来自主机，写事务请求握手信号，表示当前发的这个信号是有效的
AWREADY：来自从机，写事务请求握手信号，表示从机准备好接收**地址数据**了

## 写数据通道信号
WID：来自主机，写数据事务的ID号
WDATA：来自主机，写事务的数据
WSTRB：来自主机，字节选通，表示从机的哪一个字节缓冲区来接收这个数据。
WLAST：来自主机，指示本次写数据事务的最后一次传输。
WVALID：来自主机，表示当前的这个写数据信号是有效的
WREADY：来自从机，表示从机准备好接收数据了。

## 写回应通道信号
BID：来自从机，标记写事务的ID
BRESP：来自从机，回应的内容，指示写事务的最后结果
BVALID：来自从机，写响应请求信号，尝试握手。
BREADY：来自主机，表示主机准备好接收**写响应**

## 读地址通道信号
ARID：来自主机，读请求的ID号
ARADDR：来自主机，读取的地址
ARLEN：来自主机，传输的长度（一个Transaction有几个Transfer）
ARSIZE：来自主机，每次Transfer的字节数
ARBURST：来自主机，Burst类型，每次Transfer，地址应该如何改变
ARLOCK：来自主机，原子锁
ARCACHE：来自主机，Cache属性
ARPROT：来自主机，保护属性
ARVALID：来自主机，请求信号
ARREADY：来自从机，表示从机准备好接收地址数据

## 读数据通道信号
RID：来自从机，读事务的ID
RDATA：来自从机，数据
RRESP：来自从机，响应，指明读事务的状态（指示完整的一个Transaction，不是Transfer）
RLAST：来自从机，指示最后一次数据传输
RVALID：来自从机，请求握手
RREADY：来自主机，表示准备好接收读数据的数据了。

## Write Strobe
写通道里面有一个WSTRB(Write Strobe)，就是**写选通**
写选通的作用是，标记数据总线上那些数据是有效的。
我们举个例子。
首先，写选通是二进制向量，也就是说一个位控制一个选通。
假设数据总线是32位的，也就是data[31:0]，AXI总线最小传输单位是字节。
也就是说，data可以被分成四份，那么WSTRB也就有四个位，每个位控制数据总线上的每个部分。
这里要注意大小端，这里我们选择小端模式。
WSTRB=0011，就表示data[15:0]的数据是有效的，所以从机在读取的时候应该读取data[15:0]

有的时候需要传输奇数个字节的数据，就可以通过WSTRB来实现，例如WSTRB=1110，就表示data[31:8]是有效的。
注意，WSTRB需要连续，即不能出现WSTRB=1001这种类似情况。

## 参考文献
本文由官方文档翻译而来，笔者翻译水平有限，望谅解。
[1] AMBA_AXI_protocol_spec——ARM