# AXI单接口协议分析
单接口的意思是，一个主机和一个从机。
本文将介绍一个主机和一个从机之间的通信协议。
1. 时钟和复位
2. 基本的读写事务
3. 各个通道之间的关系
4. 事务结构

## 时钟和复位
### Clk
每一个AXI接口都具有一个时钟信号（ACLK）。
所有的输入信号都是在上升沿的时候采集（即输入信号都是上升沿有效）
所有的输出信号都是在上升沿之后发生（没有特别指明，但一定要在**当前上升沿**之后，因为AXI可以实现阻塞，所以可以在多个周期之后再响应）
### Reset
AXI总线采用低电平有效复位。
复位信号的断言（有效）可以是异步的，但是判断复位信号无效的时候，必须是在ACLK的上升沿。
就是，产生复位可以是任何时候进行复位，但是判断复位结束，必须得是在ACLK的上升沿判断。
为了让开启的时候是从上升沿开启的。

在复位的时候，一些接口应该干的事情：
1. 对于主机，必须把ARVALID，AWVALID，WVALID拉低。
2. 对于从机，必须把RVALID，BVALID拉低。
3. 其他的值可以是任何值。

## 基本的读写事务
以下会介绍一些基本的读写机制：
1. 握手机制的过程
2. 通道产生信号的规范

### 握手机制
所有的通道都具有VALID和READY，来实现握手机制。
这种两方(two-way)的机制，允许主机和从机都可以控制数据传输的速率。
1. VALID：数据的发送方，产生VALID信号，来表明当前通道中有地址/数据，或控制信号**可以获取**。
2. READY：数据的接收方，产生READY信号，来表明它当前**可以接收**当前通道的地址/数据，或控制信号。
3. 当且仅当，VALID和READY都是高电平的时候，传输(Transfer)才会发生。
主机和从机都不允许有多个组合路径的输入输出。
握手有三种情况：VALID先于READY，READY先于VALID，VALID和READY同时

**如下图，是VADLI先于READY的握手的过程时序。**
![handshake](./pages_hardware/axi/res/handshake.png)
注意：图中白色的区域是有效的，灰色区域是无效的。
1. 主机在T1这个上升沿之后，发送了数据（把数据填充到了各种寄存器上），并且发送了VALID信号
2. 在T2时刻，从机发起了READY信号，并且这期间，主机一直要保持这些数据，直到传输完成(T3)
3. 在T3时刻，发现VALID和READY都是高电平，从机就去读取了AXI总线上的数据，把数据拿到了，就把VALID，READY拉低。
注意：在这种情况下，**主机**在发起VALID之前，是需要一直工作的，当发起VALID之后，主机需要等待READY信号。

**如下图，是READY先于VADLI的握手的过程时序。**
![handshake_2](./pages_hardware/axi/res/handshake_2.png)
这种方式的分析就略过了，和第一种的分析方法差不多。
注意：在这种情况下，**从机**在发起READY之后，需要去等待VALID信号。

**如下图，是READY和VADLI同时有效的握手的过程时序。**
![handshake_3](./pages_hardware/axi/res/handshake_3.png)

需要注意的是，所有的输出都是在上升沿之后产生，因为上升沿的时候会进行读取。
但是其实……输出的时候也在上升沿输出就可以了。

## 通道产生信号的规范
### 写地址通道
主机只能在在具有有效地址数据或者控制数据的时候，才能把AWVALID拉高，并且保持住，
直到之后遇到AWREADY，完成数据交换后才能拉低AWREADY。
AWREADY默认可以是高也可以是低，推荐默认是高。

### 写数据通道
主机只能当有有效数据的时候，才能把WVALID拉高，并且保持住，直到遇到WREADY，完成交换后才能拉低。
WREADY默认可以是高也可以是低，推荐默认是高。
当主机在完成最后一次传输的时候（最后一次Transfer），要拉高WLAST。
推荐WDATA在不使用的时候置为0

### 写响应通道
从机只能在通道里面有有效数据的时候，才能把BVALID拉高，并且保持，
直到遇到BREADY，数据交换完成后才能放下。
BREADY默认可以是高。

### 读地址通道
主机只能在通道里面有有效数据的时候，才能把ARVALID拉高，并且保持住，
直到遇到ARREADY，完成数据交换后，才能拉低。
默认的ARREADY可以是高也可以是低，推荐默认是高。
如果默认ARREADY是高的话，从机默认必须要能够接收任何有效的数据。

### 读数据通道
从机只能在通道里有有效数据的时候才能把RVALID拉高，并且保持住，
直到遇到RREADY，完成数据交换后才能拉低。
主机的RREADY默认可以是高，但是只有主机能够接收数据的时候才能拉高。
从机必须要在发最后一次传输的时候，拉高RLAST。
推荐RDATA在不使用的时候置为0

## 各个通道之间的关系
AXI总线协议要求遵守一些通道间的关系协议。
1. 写回应必须在写LAST之后紧随。
2. 读数据必须在读地址之后紧随。
3. 握手过程必须遵守以下定义的握手依赖关系。

为了避免死锁(deadlcok)问题，一定要遵守以下握手依赖关系：
1. VALID信号的发起，一定不能依赖READY信号的状态
2. 接收方的READY信号可以依赖于VALID信号的状态

### 读事务的握手关系
![read_transaction_handshake](./pages_hardware/axi/res/read_transaction_handshake.png)
1. 主机**一定不能**等待从机的ARREADY状态，来发起ARVALID
2. 从机可以等待ARVALID状态，来发起ARREADY
3. 从机可以在主机的ARVALID状态之前，发起ARREADY状态。
4. 从机必须在同时收到ARVALID和ARREADY之后，才能发起RVALID（注意是R，不是AR)
5. 从机**一定不能**等待主机的RREADY状态，来发起RVALID
6. 主机可以等待从机的RVALID，来发起RREADY
7. 主机可以在从机的RVALID之前，发起RREADY

### 写事务的握手关系
![write_transaction_handshake.png](./pages_hardware/axi/res/write_transaction_handshake.png)
1. 主机**一定不能**等待从机的AWREADY，来发起AWVALID
2. 主机**一定不能**等待从机的WREADY，来发起WVALID
3. 从机可以等待主机的AWVALID，来发起AWREADY
4. 从机可以等待主机的WVALID，来发起AWREADY（这个原因是涉及到乱序通信）
5. 从机可以在AWVALID，或WVALID，或两者之前发起AWREADY（这个原因是涉及到乱序通信）
6. 从机可以等待主机的AWVALID，来发起WREADY（这个原因是涉及到乱序通信）
7. 从机可以等待主机的WVALID，来发起WREADY
8. 从机可以在AWVALID，或WVALID，或两者之前发起WREADY（这个原因是涉及到乱序通信）
9. 从机**必须**等待同时出现WVALID和WREADY，完成数据传输后才能发起BVALID
10. 从机**也必须**等待WLAST，来发起BVALID。
11. 从机**一定不能**等待主机的BREADY，来发起BVALID
12. 主机可以等待BVALID，来发起BREADY
13. 主机可以在BVALID之前发起BREADY

**这些事务的握手关系看起来很复杂，其实相似点很多，关键是去理解为什么要这样，希望读者自行体会，语言表达传达不到精髓。**

## 参考文献
本文由官方文档翻译而来，笔者翻译水平有限，望谅解。
[1] AMBA_AXI_protocol_spec——ARM